
**** 12/10/23 22:09:40 ******* PSpice Lite (March 2016) ******* ID# 10813 ****

 ** Profile: "SCHEMATIC1-Ac_sweep"  [ D:\p1\p1_2023_munteanu_lorena-PSpiceFiles\SCHEMATIC1\Ac_sweep.sim ] 


 ****     CIRCUIT DESCRIPTION


******************************************************************************




** Creating circuit file "Ac_sweep.cir" 
** WARNING: THIS AUTOMATICALLY GENERATED FILE MAY BE OVERWRITTEN BY SUBSEQUENT SIMULATIONS

*Libraries: 
* Profile Libraries :
* Local Libraries :
.LIB "c:/cadence/spb_17.2/tools/capture/library/modele_a1_lib/mmbfj309lt1g.lib" 
.LIB "c:/cadence/spb_17.2/tools/capture/library/modele_a1_lib/mmbfj177lt1g.lib" 
.LIB "c:/cadence/spb_17.2/tools/capture/library/modele_a1_lib/mjd32cg.lib" 
.LIB "c:/cadence/spb_17.2/tools/capture/library/modele_a1_lib/mjd31cg.lib" 
.LIB "c:/cadence/spb_17.2/tools/capture/library/modele_a1_lib/irfr120npbf.lib" 
.LIB "c:/cadence/spb_17.2/tools/capture/library/modele_a1_lib/bzx84c10.lib" 
.LIB "c:/cadence/spb_17.2/tools/capture/library/modele_a1_lib/bzx84c8v2.lib" 
.LIB "c:/cadence/spb_17.2/tools/capture/library/modele_a1_lib/bzx84c6v8.lib" 
.LIB "c:/cadence/spb_17.2/tools/capture/library/modele_a1_lib/bzx84c6v2.lib" 
.LIB "c:/cadence/spb_17.2/tools/capture/library/modele_a1_lib/bzx84c5v6.lib" 
.LIB "c:/cadence/spb_17.2/tools/capture/library/modele_a1_lib/bzx84c5v1.lib" 
.LIB "c:/cadence/spb_17.2/tools/capture/library/modele_a1_lib/bzx84c2v7.lib" 
.LIB "c:/cadence/spb_17.2/tools/capture/library/modele_a1_lib/bc856b.lib" 
.LIB "c:/cadence/spb_17.2/tools/capture/library/modele_a1_lib/bc846b.lib" 
.LIB "c:/cadence/spb_17.2/tools/capture/library/modele_a1_lib/bc817-25.lib" 
.LIB "c:/cadence/spb_17.2/tools/capture/library/modele_a1_lib/bc807-25.lib" 
.LIB "c:/cadence/spb_17.2/tools/capture/library/modele_a1_lib/1n4148.lib" 
.LIB "c:/users/munte/desktop/pp1/modele-spice-led-uri_2022/opto/opto.lib" 
.LIB "c:/users/munte/desktop/pp1/modele-spice-led-uri_2022/smlk18wbjxw/smlk18wbjxw/smlk18wbjxw.lib" 
.LIB "c:/users/munte/desktop/pp1/modele-spice-led-uri_2022/smls14bet/smls14bet/smls14bet.lib" 
* From [PSPICE NETLIST] section of C:\Users\munte\AppData\Roaming\SPB_Data\cdssetup\OrCAD_PSpice\17.2.0\PSpice.ini file:
.lib "nomd.lib" 

*Analysis directives: 
.AC DEC 1000 0.1 100Meg
.OPTIONS ADVCONV
.PROBE64 V(alias(*)) I(alias(*)) W(alias(*)) D(alias(*)) NOISE(alias(*)) 
.INC "..\SCHEMATIC1.net" 



**** INCLUDING SCHEMATIC1.net ****
* source P1_2023_MUNTEANU_LORENA
R_R16         N137859 N138507  1 TC=0,0 
Q_Q4         N137685 N137677 N137543 QBC856B 
R_R18         0 N138289  1.5k TC=0,0 
C_C2         0 N137891  100  TC=0,0 
R_R11         N137997 N138781  82 TC=0,0 
V_VCC         N137451 0 10.5Vdc
R_R2         N138129 N137829  68 TC=0,0 
Q_Q1         N138327 N138295 N138123 QBC856B 
Q_Q9         N138331 N138331 N138781 QBC846B 
R_R12         0 N138179  1k TC=0,0 
X_R7         N137937 N137937 N137853 POT PARAMS: SET=0.5 VALUE=100
R_R13         N138183 N138179  2.2k TC=0,0 
D_D12         N137677 N137451 BZX84-C5V1 
R_R9         N137997 N138819  22 TC=0,0 
Q_Q7         N137997 N138565 N138507 QBC856B 
R_R15         N137859 N137725  1 TC=0,0 
R_R17         0 N137569  1.5k TC=0,0 
R_R4         N137671 N137451  820 TC=0,0 
R_R10         N137997 N138775  82 TC=0,0 
Q_Q8         N138327 N138331 N138775 QBC846B 
R_R21         0 N138359  33 TC=0,0 
C_C1         N138565 N138327  47p  TC=0,0 
Q_Q3         N137829 N137677 N137671 QBC856B 
L_L1         N137891 0  100  
R_R6         N137853 N137685  10 TC=0,0 
R_R8         N138565 N137937  10 TC=0,0 
R_R3         0 N137677  4.7k TC=0,0 
R_R1         N138123 N137829  68 TC=0,0 
R_R20         N138359 N137859  51 TC=0,0 
Q_Q5         N137451 N137685 N137725 QBC846B 
R_R19         N138295 0  220k TC=0,0 
R_R14         N137859 N138183  6.8k TC=0,0 
Q_Q2         N138331 N138179 N138129 QBC856B 
R_R5         N137543 N137451  470 TC=0,0 
D_D18         N137451 N137569 SMLS14BET 
V_VEE         0 N137997 10.5Vdc
D_D17         N138289 N137997 SMLS14BET 
Q_Q6         N138565 N138327 N138819 QBC846B 
V_V1         N138295 0  AC 850m
+SIN 0 850m 1k 0 0 0

**** RESUMING Ac_sweep.cir ****
.END

**** 12/10/23 22:09:40 ******* PSpice Lite (March 2016) ******* ID# 10813 ****

 ** Profile: "SCHEMATIC1-Ac_sweep"  [ D:\p1\p1_2023_munteanu_lorena-PSpiceFiles\SCHEMATIC1\Ac_sweep.sim ] 


 ****     Diode MODEL PARAMETERS


******************************************************************************




               BZX84-C5V1      SMLS14BET       
          IS    2.666500E-18  405.890000E-24 
           N     .82284         2.4475       
         ISR  150.400000E-12                 
         IKF     .01176          .98529      
          BV    5.176                        
         IBV     .10454                      
          RS     .51617        15.483        
          TT   43.858000E-09                 
         CJO  232.290000E-12   38.500000E-12 
          VJ     .79587          .87273      
           M     .35004          .20189      
          EG                    2.638        


**** 12/10/23 22:09:40 ******* PSpice Lite (March 2016) ******* ID# 10813 ****

 ** Profile: "SCHEMATIC1-Ac_sweep"  [ D:\p1\p1_2023_munteanu_lorena-PSpiceFiles\SCHEMATIC1\Ac_sweep.sim ] 


 ****     BJT MODEL PARAMETERS


******************************************************************************




               QBC856B         QBC846B         
               PNP             NPN             
       LEVEL    1               1            
          IS   20.140000E-15   18.220000E-15 
          BF  315.3           324.4          
          NF     .9974           .9932       
         VAF   39.15           82            
         IKF     .079            .109        
         ISE    6.578000E-15  289.400000E-18 
          NE    1.45            1.4          
          BR    8.68            8.29         
          NR     .9952           .9931       
         VAR    9.5            17.9          
         IKR     .09             .09         
         ISC   16.330000E-15    9.982000E-12 
          NC    1.15            1.763        
         ISS    0               0            
          RB   10              10            
         RBM    5.000000E-06    5            
         IRB    5.000000E-06    5.000000E-06 
          RE     .663            .649        
          RC     .718            .7014       
         CJE   11.350000E-12   12.440000E-12 
         VJE     .7071           .7579       
         MJE     .3808           .3656       
         CJC    6.395000E-12    3.347000E-12 
         VJC     .4951           .5463       
         MJC     .44             .391        
        XCJC     .6288           .6193       
         CJS    0               0            
         VJS     .75             .75         
         MJS     .333            .333        
          FC     .9059           .979        
          TF  654.600000E-12  490.800000E-12 
         XTF    5.387           9.51         
         VTF    6.245           2.927        
         ITF     .2108           .3131       
          TR   55.000000E-09   90.000000E-09 
          KF    0               0            
          AF    1               1            
          CN    2.2             2.42         
           D     .52             .87         


**** 12/10/23 22:09:40 ******* PSpice Lite (March 2016) ******* ID# 10813 ****

 ** Profile: "SCHEMATIC1-Ac_sweep"  [ D:\p1\p1_2023_munteanu_lorena-PSpiceFiles\SCHEMATIC1\Ac_sweep.sim ] 


 ****     SMALL SIGNAL BIAS SOLUTION       TEMPERATURE =   27.000 DEG C


******************************************************************************



 NODE   VOLTAGE     NODE   VOLTAGE     NODE   VOLTAGE     NODE   VOLTAGE


(N137451)   10.5000                   (N137543)    6.1410                       

(N137569)    7.6372                   (N137671)    6.1235                       

(N137677)    5.4410                   (N137685)    -.0356                       

(N137725)    -.0591                   (N137829)     .8402                       

(N137853)    -.1280                   (N137859)    -.0591                       

(N137891)    0.0000                   (N137937)    -.5902                       

(N137997)  -10.5000                   (N138123)     .6589                       

(N138129)     .6597                   (N138179) 928.7E-06                       

(N138183)    -.0138                   (N138289)   -7.6372                       

(N138295)    0.0000                   (N138327)   -9.5972                       

(N138331)   -9.6203                   (N138359)    -.0232                       

(N138507)    -.0599                   (N138565)    -.6826                       

(N138775)  -10.2840                   (N138781)  -10.2840                       

(N138819)  -10.2960                   




    VOLTAGE SOURCE CURRENTS
    NAME         CURRENT

    V_VCC       -2.081E-02
    V_VEE       -2.035E-02
    V_V1         7.641E-06

    TOTAL POWER DISSIPATION   4.32E-01  WATTS



          JOB CONCLUDED

**** 12/10/23 22:09:40 ******* PSpice Lite (March 2016) ******* ID# 10813 ****

 ** Profile: "SCHEMATIC1-Ac_sweep"  [ D:\p1\p1_2023_munteanu_lorena-PSpiceFiles\SCHEMATIC1\Ac_sweep.sim ] 


 ****     JOB STATISTICS SUMMARY


******************************************************************************



  Total job time (using Solver 1)   =         .78
